
T00C0 000:147 SEGGER J-Link V4.90 Log File (0000ms, 0014ms total)
T00C0 000:147 DLL Compiled: Jul 28 2014 10:35:20 (0000ms, 0014ms total)
T00C0 000:147 Logging started @ 2018-03-20 09:20 (0000ms, 0014ms total)
T00C0 000:147 JLINK_SetWarnOutHandler(...) (0000ms, 0014ms total)
T00C0 000:147 JLINK_OpenEx(...)
Firmware: J-Link ARM-OB STM32 compiled Aug 22 2012 19:52:04
Hardware: V7.00
S/N: 20090928
Feature(s): RDI,FlashDL,FlashBP,JFlash,GDBFull  returns O.K. (0017ms, 0031ms total)
T00C0 000:164 JLINK_SetErrorOutHandler(...) (0000ms, 0031ms total)
T00C0 000:164 JLINK_ExecCommand("ProjectFile = "E:\__Git\Bootloader\Device-keil\MDK-ARM\JLinkSettings.ini"", ...)  returns 0x00 (0002ms, 0033ms total)
T00C0 000:166 JLINK_ExecCommand("Device = STM32F303CC", ...)Device "STM32F303CC" selected (256 KB flash, 32 KB RAM).  returns 0x00 (0000ms, 0033ms total)
T00C0 000:166 JLINK_ExecCommand("DisableConnectionTimeout", ...)  returns 0x01 (0000ms, 0033ms total)
T00C0 000:166 JLINK_GetHardwareVersion()  returns 0x11170 (0001ms, 0034ms total)
T00C0 000:167 JLINK_GetDLLVersion()  returns 49000 (0000ms, 0034ms total)
T00C0 000:167 JLINK_GetFirmwareString(...) (0000ms, 0034ms total)
T00C0 000:167 JLINK_GetDLLVersion()  returns 49000 (0000ms, 0034ms total)
T00C0 000:167 JLINK_GetCompileDateTime() (0000ms, 0034ms total)
T00C0 000:167 JLINK_GetFirmwareString(...) (0000ms, 0034ms total)
T00C0 000:167 JLINK_GetHardwareVersion()  returns 0x11170 (0000ms, 0034ms total)
T00C0 000:167 JLINK_TIF_Select(JLINKARM_TIF_SWD)  returns 0x00 (0001ms, 0035ms total)
T00C0 000:168 JLINK_SetSpeed(200) (0000ms, 0035ms total)
T00C0 000:168 JLINK_GetId() >0x108 TIF>Found SWD-DP with ID 0x2BA01477 >0x0D TIF> >0x28 TIF> >0x0D TIF> >0x28 TIF> >0x0D TIF> >0x21 TIF> >0x0D TIF> >0x28 TIF> >0x0D TIF> >0x28 TIF> >0x0D TIF> >0x28 TIF> >0x0D TIF> >0x21 TIF> >0x0D TIF> >0x21 TIF> >0x0D TIF> >0x28 TIF> >0x0D TIF> >0x21 TIF> >0x0D TIF> >0x21 TIF> >0x0D TIF> >0x28 TIF> >0x0D TIF> >0x21 TIF> >0x0D TIF> >0x21 TIF> >0x108 TIF>Found SWD-DP with ID 0x2BA01477 >0x0D TIF> >0x21 TIF> >0x0D TIF> >0x28 TIF> >0x0D TIF> >0x28 TIF> >0x0D TIF> >0x21 TIF>
 >0x0D TIF> >0x28 TIF> >0x0D TIF> >0x21 TIF> >0x0D TIF> >0x21 TIF> >0x0D TIF> >0x21 TIF> >0x0D TIF> >0x21 TIF> >0x0D TIF> >0x28 TIF> >0x0D TIF> >0x28 TIF> >0x0D TIF> >0x21 TIF> >0x0D TIF> >0x28 TIF> >0x0D TIF> >0x28 TIF> >0x0D TIF> >0x28 TIF> >0x0D TIF> >0x21 TIF> >0x0D TIF> >0x21 TIF> >0x0D TIF> >0x28 TIF> >0x0D TIF> >0x21 TIF> >0x0D TIF> >0x21 TIF>Found Cortex-M4 r0p1, Little endian. -- CPU_WriteMem(4 bytes @ 0xE0002000) -- CPU_ReadMem(4 bytes @ 0xE000EDF0) -- CPU_ReadMem(4 bytes @ 0xE0002000)
FPUnit: 6 code (BP) slots and 2 literal slots -- CPU_ReadMem(4 bytes @ 0xE000EDFC) -- CPU_ReadMem(4 bytes @ 0xE0001000) -- CPU_WriteMem(4 bytes @ 0xE0001000) -- CPU_ReadMem(4 bytes @ 0xE00FF010)TPIU fitted. -- CPU_ReadMem(4 bytes @ 0xE00FF014)ETM fitted. -- CPU_ReadMem(4 bytes @ 0xE00FF018) -- CPU_WriteMem(32768 bytes @ 0x20000000) >0x0D TIF> >0x21 TIF>  returns 0x2BA01477 (1063ms, 1098ms total)
T00C0 001:232 JLINK_GetDLLVersion()  returns 49000 (0000ms, 1098ms total)
T00C0 001:232 JLINK_CORE_GetFound()  returns 0xE0000FF (0001ms, 1099ms total)
T00C0 001:233 JLINK_GetDebugInfo(0x100) -- Value=0xE00FF003  returns 0x00 (0000ms, 1099ms total)
T00C0 001:233 JLINK_GetDebugInfo(0x101)  returns 0xFFFFFFFF (0000ms, 1099ms total)
T00C0 001:233 JLINK_ReadMem (0xE0041FF0, 0x0010 Bytes, ...) -- CPU_ReadMem(16 bytes @ 0xE0041FF0) - Data: 0D 00 00 00 90 00 00 00 05 00 00 00 B1 00 00 00  returns 0x00 (0003ms, 1102ms total)
T00C0 001:236 JLINK_GetDebugInfo(0x102)  returns 0xFFFFFFFF (0000ms, 1102ms total)
T00C0 001:236 JLINK_GetDebugInfo(0x103)  returns 0xFFFFFFFF (0000ms, 1102ms total)
T00C0 001:236 JLINK_ReadMem (0xE0040FF0, 0x0010 Bytes, ...) -- CPU_ReadMem(16 bytes @ 0xE0040FF0) - Data: 0D 00 00 00 90 00 00 00 05 00 00 00 B1 00 00 00  returns 0x00 (0002ms, 1104ms total)
T00C0 001:238 JLINK_GetDebugInfo(0x104)  returns 0xFFFFFFFF (0000ms, 1104ms total)
T00C0 001:238 JLINK_GetDebugInfo(0x105)  returns 0xFFFFFFFF (0000ms, 1104ms total)
T00C0 001:238 JLINK_GetDebugInfo(0x106)  returns 0xFFFFFFFF (0000ms, 1104ms total)
T00C0 001:238 JLINK_GetDebugInfo(0x107)  returns 0xFFFFFFFF (0000ms, 1104ms total)
T00C0 001:238 JLINK_GetDebugInfo(0x10C)  returns 0xFFFFFFFF (0001ms, 1105ms total)
T00C0 001:239 JLINK_ReadMemU32(0xE000EF40, 0x0001 Items, ...) -- CPU_ReadMem(4 bytes @ 0xE000EF40) - Data: 21 00 11 10  returns 0x01 (0002ms, 1107ms total)
T00C0 001:241 JLINK_ReadMemU32(0xE000EF44, 0x0001 Items, ...) -- CPU_ReadMem(4 bytes @ 0xE000EF44) - Data: 11 00 00 11  returns 0x01 (0002ms, 1109ms total)
T00C0 001:243 JLINK_ReadMemU32(0xE000ED00, 0x0001 Items, ...) -- CPU_ReadMem(4 bytes @ 0xE000ED00) - Data: 41 C2 0F 41  returns 0x01 (0003ms, 1112ms total)
T00C0 001:246 JLINK_SetResetType(JLINKARM_RESET_TYPE_NORMAL)  returns JLINKARM_RESET_TYPE_NORMAL (0000ms, 1112ms total)
T00C0 001:246 JLINK_Reset() -- CPU_WriteMem(4 bytes @ 0xE000EDF0) -- CPU_WriteMem(4 bytes @ 0xE000EDFC) >0x35 TIF> -- CPU_WriteMem(4 bytes @ 0xE000ED0C) -- CPU_ReadMem(4 bytes @ 0xE000EDF0) -- CPU_ReadMem(4 bytes @ 0xE000EDF0) -- CPU_WriteMem(4 bytes @ 0xE000EDF0) -- CPU_WriteMem(4 bytes @ 0xE000EDFC) -- CPU is running -- CPU_ReadMem(4 bytes @ 0xE000EDF0) -- CPU_WriteMem(4 bytes @ 0xE0002000) -- CPU_ReadMem(4 bytes @ 0xE000EDFC) -- CPU_ReadMem(4 bytes @ 0xE0001000) (0055ms, 1167ms total)
T00C0 001:301 JLINK_ReadReg(R15 (PC))  returns 0x0800019C (0001ms, 1168ms total)
T00C0 001:302 JLINK_ReadReg(XPSR)  returns 0x01000000 (0000ms, 1168ms total)
T00C0 001:302 JLINK_Halt()  returns 0x00 (0000ms, 1168ms total)
T00C0 001:302 JLINK_IsHalted()  returns TRUE (0000ms, 1168ms total)
T00C0 001:302 JLINK_ReadMemU32(0xE000EDF0, 0x0001 Items, ...) -- CPU_ReadMem(4 bytes @ 0xE000EDF0) - Data: 03 00 03 00  returns 0x01 (0002ms, 1170ms total)
T00C0 001:304 JLINK_WriteU32(0xE000EDF0, 0xA05F0003) -- CPU_WriteMem(4 bytes @ 0xE000EDF0)  returns 0x00 (0002ms, 1172ms total)
T00C0 001:306 JLINK_WriteU32(0xE000EDFC, 0x01000000) -- CPU_WriteMem(4 bytes @ 0xE000EDFC)  returns 0x00 (0003ms, 1175ms total)
T00C0 001:309 JLINK_GetHWStatus(...)  returns 0x00 (0000ms, 1175ms total)
T00C0 001:309 JLINK_GetNumBPUnits(Type = 0xFFFFFF00)  returns 0x06 (0000ms, 1175ms total)
T00C0 001:309 JLINK_GetNumBPUnits(Type = 0xF0)  returns 0x2000 (0000ms, 1175ms total)
T00C0 001:309 JLINK_GetNumWPUnits()  returns 0x04 (0000ms, 1175ms total)
T00C0 001:309 JLINK_GetSpeed()  returns 0xC8 (0000ms, 1175ms total)
T00C0 001:309 JLINK_ReadMemU32(0xE000E004, 0x0001 Items, ...) -- CPU_ReadMem(4 bytes @ 0xE000E004) - Data: 02 00 00 00  returns 0x01 (0003ms, 1178ms total)
T00C0 001:312 JLINK_ReadMemU32(0xE000E004, 0x0001 Items, ...) -- CPU_ReadMem(4 bytes @ 0xE000E004) - Data: 02 00 00 00  returns 0x01 (0003ms, 1181ms total)
T00C0 001:315 JLINK_WriteMem(0xE0001000, 0x001C Bytes, ...) - Data: 01 00 00 00 00 00 00 00 00 00 00 00 00 00 00 00 ... -- CPU_WriteMem(28 bytes @ 0xE0001000)  returns 0x1C (0005ms, 1186ms total)
T00C0 001:320 JLINK_ReadMem (0xE0001000, 0x001C Bytes, ...) -- CPU_ReadMem(28 bytes @ 0xE0001000) - Data: 01 00 00 40 00 00 00 00 00 00 00 00 00 00 00 00 ...  returns 0x00 (0004ms, 1190ms total)
T00C0 001:324 JLINK_ReadReg(R15 (PC))  returns 0x0800019C (0000ms, 1190ms total)
T00C0 001:324 JLINK_ReadReg(XPSR)  returns 0x01000000 (0000ms, 1190ms total)
T00C0 001:463 JLINK_SetResetType(JLINKARM_RESET_TYPE_NORMAL)  returns JLINKARM_RESET_TYPE_NORMAL (0000ms, 1190ms total)
T00C0 001:463 JLINK_Reset() -- CPU_WriteMem(4 bytes @ 0xE000EDF0) -- CPU_WriteMem(4 bytes @ 0xE000EDFC) >0x35 TIF> -- CPU_WriteMem(4 bytes @ 0xE000ED0C) -- CPU_ReadMem(4 bytes @ 0xE000EDF0) -- CPU_ReadMem(4 bytes @ 0xE000EDF0) -- CPU_WriteMem(4 bytes @ 0xE000EDF0) -- CPU_WriteMem(4 bytes @ 0xE000EDFC) -- CPU is running -- CPU_ReadMem(4 bytes @ 0xE000EDF0) -- CPU_WriteMem(4 bytes @ 0xE0002000) -- CPU_ReadMem(4 bytes @ 0xE000EDFC) -- CPU_ReadMem(4 bytes @ 0xE0001000) (0058ms, 1248ms total)
T00C0 001:521 JLINK_ReadReg(R15 (PC))  returns 0x0800019C (0001ms, 1249ms total)
T00C0 001:522 JLINK_ReadReg(XPSR)  returns 0x01000000 (0000ms, 1249ms total)
T00C0 001:523 JLINK_ReadMem (0x0800019C, 0x003C Bytes, ...) -- CPU_ReadMem(128 bytes @ 0x08000180) -- Updating C cache (128 bytes @ 0x08000180) -- Read from C cache (60 bytes @ 0x0800019C) - Data: 06 48 80 47 06 48 00 47 FE E7 FE E7 FE E7 FE E7 ...  returns 0x00 (0011ms, 1260ms total)
T00C0 001:697 JLINK_ReadMem (0x40006400, 0x001C Bytes, ...) -- CPU_ReadMem(28 bytes @ 0x40006400) - Data: 02 00 01 00 0A 0C 00 00 00 00 00 1C 00 00 00 00 ...  returns 0x00 (0004ms, 1264ms total)
T00C0 001:701 JLINK_ReadMem (0x4000641C, 0x0004 Bytes, ...) -- CPU_ReadMem(4 bytes @ 0x4000641C) - Data: 00 00 23 01  returns 0x00 (0002ms, 1266ms total)
T00C0 001:703 JLINK_ReadMem (0x40006580, 0x004C Bytes, ...) -- CPU_ReadMem(76 bytes @ 0x40006580) - Data: 00 00 00 10 D1 DB F9 7D 07 00 00 00 00 00 00 00 ...  returns 0x00 (0008ms, 1274ms total)
T00C0 001:711 JLINK_ReadMem (0x400065CC, 0x0004 Bytes, ...) -- CPU_ReadMem(4 bytes @ 0x400065CC) - Data: F6 AD 26 AF  returns 0x00 (0002ms, 1276ms total)
T00C0 001:713 JLINK_ReadMem (0x40006600, 0x0004 Bytes, ...) -- CPU_ReadMem(4 bytes @ 0x40006600) - Data: 01 0E 1C 2A  returns 0x00 (0002ms, 1278ms total)
T00C0 001:715 JLINK_ReadMem (0x40006604, 0x0004 Bytes, ...) -- CPU_ReadMem(4 bytes @ 0x40006604) - Data: 00 00 00 00  returns 0x00 (0002ms, 1280ms total)
T00C0 001:717 JLINK_ReadMem (0x4000660C, 0x0004 Bytes, ...) -- CPU_ReadMem(4 bytes @ 0x4000660C) - Data: 00 00 00 00  returns 0x00 (0002ms, 1282ms total)
T00C0 001:719 JLINK_ReadMem (0x40006614, 0x0004 Bytes, ...) -- CPU_ReadMem(4 bytes @ 0x40006614) - Data: 00 00 00 00  returns 0x00 (0003ms, 1285ms total)
T00C0 001:722 JLINK_ReadMem (0x4000661C, 0x0004 Bytes, ...) -- CPU_ReadMem(4 bytes @ 0x4000661C) - Data: 00 00 00 00  returns 0x00 (0002ms, 1287ms total)
T00C0 001:724 JLINK_ReadMem (0x40006640, 0x00DC Bytes, ...) -- CPU_ReadMem(220 bytes @ 0x40006640) - Data: E0 00 E0 0F FF FF FF FF 00 00 E0 1F 00 00 E0 1F ...  returns 0x00 (0018ms, 1305ms total)
T00C0 001:742 JLINK_ReadMem (0x4000671C, 0x0004 Bytes, ...) -- CPU_ReadMem(4 bytes @ 0x4000671C) - Data: 55 59 5F 3C  returns 0x00 (0002ms, 1307ms total)
T00C0 003:059 JLINK_ReadMem (0x20000094, 0x0020 Bytes, ...) -- CPU_ReadMem(64 bytes @ 0x20000080) -- Updating C cache (64 bytes @ 0x20000080) -- Read from C cache (32 bytes @ 0x20000094) - Data: AA 55 AA 55 AA 55 AA 55 AA 55 AA 55 AA 55 AA 55 ...  returns 0x00 (0007ms, 1314ms total)
T00C0 003:081 JLINK_ReadMem (0x200004F4, 0x0020 Bytes, ...) -- CPU_ReadMem(128 bytes @ 0x200004C0) -- Updating C cache (128 bytes @ 0x200004C0) -- Read from C cache (32 bytes @ 0x200004F4) - Data: AA 55 AA 55 AA 55 AA 55 AA 55 AA 55 AA 55 AA 55 ...  returns 0x00 (0012ms, 1326ms total)
T00C0 003:117 JLINK_ReadMem (0x20000008, 0x0004 Bytes, ...) -- CPU_ReadMem(64 bytes @ 0x20000000) -- Updating C cache (64 bytes @ 0x20000000) -- Read from C cache (4 bytes @ 0x20000008) - Data: AA 55 AA 55  returns 0x00 (0007ms, 1333ms total)
T00C0 003:131 JLINK_ReadMem (0x2000000C, 0x0004 Bytes, ...) -- Read from C cache (4 bytes @ 0x2000000C) - Data: AA 55 AA 55  returns 0x00 (0000ms, 1333ms total)
T00C0 003:139 JLINK_ReadMem (0x75AA563E, 0x0020 Bytes, ...) -- CPU_ReadMem(32 bytes @ 0x75AA563E) - Data: AA AA AA AA AA AA AA AA AA AA AA AA AA AA AA AA ...  returns 0x01 (0003ms, 1336ms total)
T317C 003:291 JLINK_SetBPEx(Addr = 0x08002BDC, Type = 0xFFFFFFF2)  returns 0x00000001 (0000ms, 1336ms total)
T317C 003:291 JLINK_SetBPEx(Addr = 0x080024AA, Type = 0xFFFFFFF2)  returns 0x00000002 (0000ms, 1336ms total)
T317C 003:291 JLINK_SetBPEx(Addr = 0x08002BDE, Type = 0xFFFFFFF2)  returns 0x00000003 (0000ms, 1336ms total)
T317C 003:291 JLINK_Go() -- CPU_WriteMem(4 bytes @ 0xE0002000) -- CPU_WriteMem(4 bytes @ 0xE0002008) -- CPU_WriteMem(4 bytes @ 0xE0002000) -- CPU_WriteMem(4 bytes @ 0xE000200C) -- CPU_WriteMem(4 bytes @ 0xE0002000) -- CPU_WriteMem(4 bytes @ 0xE0002010) -- CPU_WriteMem(4 bytes @ 0xE0002008) -- CPU_WriteMem(4 bytes @ 0xE0002014) -- CPU_WriteMem(4 bytes @ 0xE0002018) -- CPU_WriteMem(4 bytes @ 0xE000201C) -- CPU_WriteMem(4 bytes @ 0xE0001004) (0029ms, 1365ms total)
T317C 003:421 JLINK_IsHalted()  returns TRUE (0021ms, 1386ms total)
T317C 003:442 JLINK_Halt()  returns 0x00 (0000ms, 1365ms total)
T317C 003:442 JLINK_IsHalted()  returns TRUE (0000ms, 1365ms total)
T317C 003:442 JLINK_IsHalted()  returns TRUE (0000ms, 1365ms total)
T317C 003:442 JLINK_IsHalted()  returns TRUE (0000ms, 1365ms total)
T317C 003:442 JLINK_ReadReg(R15 (PC))  returns 0x08002BDC (0000ms, 1365ms total)
T317C 003:442 JLINK_ReadReg(XPSR)  returns 0x61000000 (0000ms, 1365ms total)
T317C 003:442 JLINK_ClrBPEx(BPHandle = 0x00000001)  returns 0x00 (0000ms, 1365ms total)
T317C 003:442 JLINK_ClrBPEx(BPHandle = 0x00000002)  returns 0x00 (0000ms, 1365ms total)
T317C 003:442 JLINK_ClrBPEx(BPHandle = 0x00000003)  returns 0x00 (0000ms, 1365ms total)
T317C 003:442 JLINK_ReadMemU32(0xE000ED30, 0x0001 Items, ...) -- CPU_ReadMem(4 bytes @ 0xE000ED30) - Data: 03 00 00 00  returns 0x01 (0003ms, 1368ms total)
T317C 003:445 JLINK_ReadMemU32(0xE0001028, 0x0001 Items, ...) -- CPU_ReadMem(4 bytes @ 0xE0001028) - Data: 00 00 00 00  returns 0x01 (0002ms, 1370ms total)
T317C 003:447 JLINK_ReadMemU32(0xE0001038, 0x0001 Items, ...) -- CPU_ReadMem(4 bytes @ 0xE0001038) - Data: 00 02 00 00  returns 0x01 (0002ms, 1372ms total)
T317C 003:449 JLINK_ReadMemU32(0xE0001048, 0x0001 Items, ...) -- CPU_ReadMem(4 bytes @ 0xE0001048) - Data: 00 00 00 00  returns 0x01 (0003ms, 1375ms total)
T317C 003:452 JLINK_ReadMemU32(0xE0001058, 0x0001 Items, ...) -- CPU_ReadMem(4 bytes @ 0xE0001058) - Data: 00 00 00 00  returns 0x01 (0002ms, 1377ms total)
T317C 003:454 JLINK_ReadReg(R0)  returns 0x08002BDD (0000ms, 1377ms total)
T317C 003:454 JLINK_ReadReg(R1)  returns 0x20000F80 (0000ms, 1377ms total)
T317C 003:454 JLINK_ReadReg(R2)  returns 0x00000000 (0000ms, 1377ms total)
T317C 003:454 JLINK_ReadReg(R3)  returns 0x080024D1 (0000ms, 1377ms total)
T317C 003:454 JLINK_ReadReg(R4)  returns 0x0800305C (0000ms, 1377ms total)
T317C 003:454 JLINK_ReadReg(R5)  returns 0x0800305C (0000ms, 1377ms total)
T317C 003:454 JLINK_ReadReg(R6)  returns 0x00000000 (0000ms, 1377ms total)
T317C 003:454 JLINK_ReadReg(R7)  returns 0x00000000 (0000ms, 1377ms total)
T317C 003:454 JLINK_ReadReg(R8)  returns 0x00000000 (0000ms, 1377ms total)
T317C 003:454 JLINK_ReadReg(R9)  returns 0x00000000 (0000ms, 1377ms total)
T317C 003:454 JLINK_ReadReg(R10)  returns 0x00000000 (0000ms, 1377ms total)
T317C 003:454 JLINK_ReadReg(R11)  returns 0x00000000 (0000ms, 1377ms total)
T317C 003:454 JLINK_ReadReg(R12)  returns 0x00000000 (0000ms, 1377ms total)
T317C 003:454 JLINK_ReadReg(R13 (SP))  returns 0x20000F80 (0001ms, 1378ms total)
T317C 003:455 JLINK_ReadReg(R14)  returns 0x0800022D (0000ms, 1378ms total)
T317C 003:455 JLINK_ReadReg(R15 (PC))  returns 0x08002BDC (0000ms, 1378ms total)
T317C 003:455 JLINK_ReadReg(XPSR)  returns 0x61000000 (0000ms, 1378ms total)
T317C 003:455 JLINK_ReadReg(MSP)  returns 0x20000F80 (0000ms, 1378ms total)
T317C 003:455 JLINK_ReadReg(PSP)  returns 0x00000000 (0000ms, 1378ms total)
T317C 003:455 JLINK_ReadReg(CFBP)  returns 0x00000000 (0000ms, 1378ms total)
T317C 003:455 JLINK_ReadReg(FPSCR)  returns 0x00000000 (0034ms, 1412ms total)
T317C 003:489 JLINK_ReadReg(FPS0)  returns 0x00000000 (0000ms, 1412ms total)
T317C 003:489 JLINK_ReadReg(FPS1)  returns 0x00000000 (0000ms, 1412ms total)
T317C 003:489 JLINK_ReadReg(FPS2)  returns 0x00000000 (0000ms, 1412ms total)
T317C 003:489 JLINK_ReadReg(FPS3)  returns 0x00000000 (0000ms, 1412ms total)
T317C 003:489 JLINK_ReadReg(FPS4)  returns 0x00000000 (0000ms, 1412ms total)
T317C 003:489 JLINK_ReadReg(FPS5)  returns 0x00000000 (0000ms, 1412ms total)
T317C 003:489 JLINK_ReadReg(FPS6)  returns 0x00000000 (0000ms, 1412ms total)
T317C 003:489 JLINK_ReadReg(FPS7)  returns 0x00000000 (0000ms, 1412ms total)
T317C 003:489 JLINK_ReadReg(FPS8)  returns 0x00000000 (0000ms, 1412ms total)
T317C 003:489 JLINK_ReadReg(FPS9)  returns 0x00000000 (0000ms, 1412ms total)
T317C 003:489 JLINK_ReadReg(FPS10)  returns 0x00000000 (0000ms, 1412ms total)
T317C 003:489 JLINK_ReadReg(FPS11)  returns 0x00000000 (0000ms, 1412ms total)
T317C 003:489 JLINK_ReadReg(FPS12)  returns 0x00000000 (0000ms, 1412ms total)
T317C 003:489 JLINK_ReadReg(FPS13)  returns 0x00000000 (0000ms, 1412ms total)
T317C 003:489 JLINK_ReadReg(FPS14)  returns 0x00000000 (0000ms, 1412ms total)
T317C 003:489 JLINK_ReadReg(FPS15)  returns 0x00000000 (0000ms, 1412ms total)
T317C 003:489 JLINK_ReadReg(FPS16)  returns 0x00000000 (0000ms, 1412ms total)
T317C 003:489 JLINK_ReadReg(FPS17)  returns 0x00000000 (0000ms, 1412ms total)
T317C 003:489 JLINK_ReadReg(FPS18)  returns 0x00000000 (0001ms, 1413ms total)
T317C 003:490 JLINK_ReadReg(FPS19)  returns 0x00000000 (0000ms, 1413ms total)
T317C 003:490 JLINK_ReadReg(FPS20)  returns 0x00000000 (0000ms, 1413ms total)
T317C 003:490 JLINK_ReadReg(FPS21)  returns 0x00000000 (0000ms, 1413ms total)
T317C 003:490 JLINK_ReadReg(FPS22)  returns 0x00000000 (0000ms, 1413ms total)
T317C 003:490 JLINK_ReadReg(FPS23)  returns 0x00000000 (0000ms, 1413ms total)
T317C 003:490 JLINK_ReadReg(FPS24)  returns 0x00000000 (0000ms, 1413ms total)
T317C 003:490 JLINK_ReadReg(FPS25)  returns 0x00000000 (0000ms, 1413ms total)
T317C 003:490 JLINK_ReadReg(FPS26)  returns 0x00000000 (0000ms, 1413ms total)
T317C 003:490 JLINK_ReadReg(FPS27)  returns 0x00000000 (0000ms, 1413ms total)
T317C 003:490 JLINK_ReadReg(FPS28)  returns 0x00000000 (0000ms, 1413ms total)
T317C 003:490 JLINK_ReadReg(FPS29)  returns 0x00000000 (0000ms, 1413ms total)
T317C 003:490 JLINK_ReadReg(FPS30)  returns 0x00000000 (0000ms, 1413ms total)
T317C 003:490 JLINK_ReadReg(FPS31)  returns 0x00000000 (0000ms, 1413ms total)
T00C0 003:490 JLINK_ReadMem (0x00000000, 0x0002 Bytes, ...) -- CPU_ReadMem(4 bytes @ 0x00000004) -- CPU_ReadMem(64 bytes @ 0x08000000) -- Updating C cache (64 bytes @ 0x08000000) -- Read from C cache (2 bytes @ 0x08000000) - Data: 80 0F  returns 0x00 (0009ms, 1422ms total)
T00C0 003:501 JLINK_ReadMem (0x20000094, 0x0020 Bytes, ...) -- CPU_ReadMem(64 bytes @ 0x20000080) -- Updating C cache (64 bytes @ 0x20000080) -- Read from C cache (32 bytes @ 0x20000094) - Data: 00 00 00 00 00 00 00 00 00 00 00 00 00 00 00 00 ...  returns 0x00 (0007ms, 1429ms total)
T00C0 003:512 JLINK_ReadMem (0x200004F4, 0x0020 Bytes, ...) -- CPU_ReadMem(128 bytes @ 0x200004C0) -- Updating C cache (128 bytes @ 0x200004C0) -- Read from C cache (32 bytes @ 0x200004F4) - Data: 00 00 00 00 00 00 00 00 00 00 00 00 00 00 00 00 ...  returns 0x00 (0011ms, 1440ms total)
T00C0 003:548 JLINK_ReadMem (0x20000008, 0x0004 Bytes, ...) -- CPU_ReadMem(64 bytes @ 0x20000000) -- Updating C cache (64 bytes @ 0x20000000) -- Read from C cache (4 bytes @ 0x20000008) - Data: 00 00 00 00  returns 0x00 (0007ms, 1447ms total)
T00C0 003:556 JLINK_ReadMem (0x2000000C, 0x0004 Bytes, ...) -- Read from C cache (4 bytes @ 0x2000000C) - Data: 00 00 00 00  returns 0x00 (0000ms, 1447ms total)
T00C0 003:582 JLINK_ReadMem (0x40006400, 0x001C Bytes, ...) -- CPU_ReadMem(28 bytes @ 0x40006400) - Data: 02 00 01 00 0A 0C 00 00 00 00 00 1C 00 00 00 00 ...  returns 0x00 (0004ms, 1451ms total)
T00C0 003:587 JLINK_ReadMem (0x4000641C, 0x0004 Bytes, ...) -- CPU_ReadMem(4 bytes @ 0x4000641C) - Data: 00 00 23 01  returns 0x00 (0002ms, 1454ms total)
T00C0 003:589 JLINK_ReadMem (0x40006580, 0x004C Bytes, ...) -- CPU_ReadMem(76 bytes @ 0x40006580) - Data: 00 00 00 10 D1 DB F9 7D 07 00 00 00 00 00 00 00 ...  returns 0x00 (0007ms, 1461ms total)
T00C0 003:596 JLINK_ReadMem (0x400065CC, 0x0004 Bytes, ...) -- CPU_ReadMem(4 bytes @ 0x400065CC) - Data: F6 AD 26 AF  returns 0x00 (0003ms, 1464ms total)
T00C0 003:599 JLINK_ReadMem (0x40006600, 0x0004 Bytes, ...) -- CPU_ReadMem(4 bytes @ 0x40006600) - Data: 01 0E 1C 2A  returns 0x00 (0002ms, 1466ms total)
T00C0 003:601 JLINK_ReadMem (0x40006604, 0x0004 Bytes, ...) -- CPU_ReadMem(4 bytes @ 0x40006604) - Data: 00 00 00 00  returns 0x00 (0003ms, 1469ms total)
T00C0 003:604 JLINK_ReadMem (0x4000660C, 0x0004 Bytes, ...) -- CPU_ReadMem(4 bytes @ 0x4000660C) - Data: 00 00 00 00  returns 0x00 (0002ms, 1471ms total)
T00C0 003:606 JLINK_ReadMem (0x40006614, 0x0004 Bytes, ...) -- CPU_ReadMem(4 bytes @ 0x40006614) - Data: 00 00 00 00  returns 0x00 (0002ms, 1473ms total)
T00C0 003:608 JLINK_ReadMem (0x4000661C, 0x0004 Bytes, ...) -- CPU_ReadMem(4 bytes @ 0x4000661C) - Data: 00 00 00 00  returns 0x00 (0003ms, 1476ms total)
T00C0 003:611 JLINK_ReadMem (0x40006640, 0x00DC Bytes, ...) -- CPU_ReadMem(220 bytes @ 0x40006640) - Data: E0 00 E0 0F FF FF FF FF 00 00 E0 1F 00 00 E0 1F ...  returns 0x00 (0018ms, 1494ms total)
T00C0 003:629 JLINK_ReadMem (0x4000671C, 0x0004 Bytes, ...) -- CPU_ReadMem(4 bytes @ 0x4000671C) - Data: 55 59 5F 3C  returns 0x00 (0002ms, 1496ms total)
T00C0 003:637 JLINK_ReadMem (0x08002BDC, 0x0024 Bytes, ...) -- CPU_ReadMem(64 bytes @ 0x08002BC0) -- Updating C cache (64 bytes @ 0x08002BC0) -- Read from C cache (36 bytes @ 0x08002BDC) - Data: 0E B5 00 20 00 90 01 90 02 90 FF F7 95 FE 1E 48 ...  returns 0x00 (0007ms, 1503ms total)
T00C0 003:644 JLINK_ReadMem (0x08002C00, 0x0018 Bytes, ...) -- CPU_ReadMem(64 bytes @ 0x08002C00) -- Updating C cache (64 bytes @ 0x08002C00) -- Read from C cache (24 bytes @ 0x08002C00) - Data: 27 FB FF F7 C7 FB FF F7 0F FB 18 48 FF F7 CC FD ...  returns 0x00 (0007ms, 1510ms total)
T00C0 006:474 JLINK_SetResetType(JLINKARM_RESET_TYPE_NORMAL)  returns JLINKARM_RESET_TYPE_NORMAL (0000ms, 1510ms total)
T00C0 006:474 JLINK_Reset() -- CPU_WriteMem(4 bytes @ 0xE000EDF0) -- CPU_WriteMem(4 bytes @ 0xE000EDFC) >0x35 TIF> -- CPU_WriteMem(4 bytes @ 0xE000ED0C) -- CPU_ReadMem(4 bytes @ 0xE000EDF0) -- CPU_ReadMem(4 bytes @ 0xE000EDF0) -- CPU_WriteMem(4 bytes @ 0xE000EDF0) -- CPU_WriteMem(4 bytes @ 0xE000EDFC) -- CPU is running -- CPU_ReadMem(4 bytes @ 0xE000EDF0) -- CPU_WriteMem(4 bytes @ 0xE0002000) -- CPU_ReadMem(4 bytes @ 0xE000EDFC) -- CPU_ReadMem(4 bytes @ 0xE0001000) (0058ms, 1568ms total)
T00C0 006:532 JLINK_ReadReg(R15 (PC))  returns 0x0800019C (0000ms, 1568ms total)
T00C0 006:532 JLINK_ReadReg(XPSR)  returns 0x01000000 (0000ms, 1568ms total)
T00C0 006:532 JLINK_ReadMem (0x0800019C, 0x003C Bytes, ...) -- CPU_ReadMem(128 bytes @ 0x08000180) -- Updating C cache (128 bytes @ 0x08000180) -- Read from C cache (60 bytes @ 0x0800019C) - Data: 06 48 80 47 06 48 00 47 FE E7 FE E7 FE E7 FE E7 ...  returns 0x00 (0012ms, 1580ms total)
T00C0 006:668 JLINK_ReadMem (0x20000094, 0x0020 Bytes, ...) -- CPU_ReadMem(64 bytes @ 0x20000080) -- Updating C cache (64 bytes @ 0x20000080) -- Read from C cache (32 bytes @ 0x20000094) - Data: 00 00 00 00 00 00 00 00 00 00 00 00 00 00 00 00 ...  returns 0x00 (0007ms, 1587ms total)
T00C0 006:675 JLINK_ReadMem (0x200004F4, 0x0020 Bytes, ...) -- CPU_ReadMem(128 bytes @ 0x200004C0) -- Updating C cache (128 bytes @ 0x200004C0) -- Read from C cache (32 bytes @ 0x200004F4) - Data: 00 00 00 00 00 00 00 00 00 00 00 00 00 00 00 00 ...  returns 0x00 (0012ms, 1599ms total)
T00C0 006:688 JLINK_ReadMem (0x20000008, 0x0004 Bytes, ...) -- CPU_ReadMem(64 bytes @ 0x20000000) -- Updating C cache (64 bytes @ 0x20000000) -- Read from C cache (4 bytes @ 0x20000008) - Data: 00 00 00 00  returns 0x00 (0006ms, 1605ms total)
T00C0 006:695 JLINK_ReadMem (0x2000000C, 0x0004 Bytes, ...) -- Read from C cache (4 bytes @ 0x2000000C) - Data: 00 00 00 00  returns 0x00 (0000ms, 1605ms total)
T317C 008:373 JLINK_SetBPEx(Addr = 0x080024AA, Type = 0xFFFFFFF2)  returns 0x00000004 (0001ms, 1606ms total)
T317C 008:374 JLINK_SetBPEx(Addr = 0x08002BDE, Type = 0xFFFFFFF2)  returns 0x00000005 (0000ms, 1606ms total)
T317C 008:374 JLINK_Go() -- CPU_WriteMem(4 bytes @ 0xE0002000) -- CPU_WriteMem(4 bytes @ 0xE0002000) -- CPU_WriteMem(4 bytes @ 0xE0002008) -- CPU_WriteMem(4 bytes @ 0xE000200C) -- CPU_WriteMem(4 bytes @ 0xE0002010) -- CPU_WriteMem(4 bytes @ 0xE0002014) -- CPU_WriteMem(4 bytes @ 0xE0002018) -- CPU_WriteMem(4 bytes @ 0xE000201C) -- CPU_WriteMem(4 bytes @ 0xE0001004) (0026ms, 1632ms total)
T317C 008:500 JLINK_IsHalted()  returns TRUE (0021ms, 1653ms total)
T317C 008:523 JLINK_Halt()  returns 0x00 (0000ms, 1632ms total)
T317C 008:523 JLINK_IsHalted()  returns TRUE (0000ms, 1632ms total)
T317C 008:523 JLINK_IsHalted()  returns TRUE (0000ms, 1632ms total)
T317C 008:523 JLINK_IsHalted()  returns TRUE (0000ms, 1632ms total)
T317C 008:523 JLINK_ReadReg(R15 (PC))  returns 0x08002BDE (0000ms, 1632ms total)
T317C 008:523 JLINK_ReadReg(XPSR)  returns 0x61000000 (0000ms, 1632ms total)
T317C 008:523 JLINK_ClrBPEx(BPHandle = 0x00000004)  returns 0x00 (0000ms, 1632ms total)
T317C 008:523 JLINK_ClrBPEx(BPHandle = 0x00000005)  returns 0x00 (0000ms, 1632ms total)
T317C 008:523 JLINK_ReadMemU32(0xE000ED30, 0x0001 Items, ...) -- CPU_ReadMem(4 bytes @ 0xE000ED30) - Data: 03 00 00 00  returns 0x01 (0002ms, 1634ms total)
T317C 008:525 JLINK_ReadMemU32(0xE0001028, 0x0001 Items, ...) -- CPU_ReadMem(4 bytes @ 0xE0001028) - Data: 00 00 00 00  returns 0x01 (0003ms, 1637ms total)
T317C 008:528 JLINK_ReadMemU32(0xE0001038, 0x0001 Items, ...) -- CPU_ReadMem(4 bytes @ 0xE0001038) - Data: 00 02 00 00  returns 0x01 (0003ms, 1640ms total)
T317C 008:531 JLINK_ReadMemU32(0xE0001048, 0x0001 Items, ...) -- CPU_ReadMem(4 bytes @ 0xE0001048) - Data: 00 00 00 00  returns 0x01 (0002ms, 1642ms total)
T317C 008:533 JLINK_ReadMemU32(0xE0001058, 0x0001 Items, ...) -- CPU_ReadMem(4 bytes @ 0xE0001058) - Data: 00 00 00 00  returns 0x01 (0003ms, 1645ms total)
T317C 008:536 JLINK_ReadReg(R0)  returns 0x08002BDD (0000ms, 1645ms total)
T317C 008:536 JLINK_ReadReg(R1)  returns 0x20000F80 (0000ms, 1645ms total)
T317C 008:536 JLINK_ReadReg(R2)  returns 0x00000000 (0000ms, 1645ms total)
T317C 008:536 JLINK_ReadReg(R3)  returns 0x080024D1 (0000ms, 1645ms total)
T317C 008:536 JLINK_ReadReg(R4)  returns 0x0800305C (0000ms, 1645ms total)
T317C 008:536 JLINK_ReadReg(R5)  returns 0x0800305C (0000ms, 1645ms total)
T317C 008:536 JLINK_ReadReg(R6)  returns 0x00000000 (0000ms, 1645ms total)
T317C 008:536 JLINK_ReadReg(R7)  returns 0x00000000 (0000ms, 1645ms total)
T317C 008:536 JLINK_ReadReg(R8)  returns 0x00000000 (0000ms, 1645ms total)
T317C 008:536 JLINK_ReadReg(R9)  returns 0x00000000 (0000ms, 1645ms total)
T317C 008:536 JLINK_ReadReg(R10)  returns 0x00000000 (0000ms, 1645ms total)
T317C 008:536 JLINK_ReadReg(R11)  returns 0x00000000 (0000ms, 1645ms total)
T317C 008:536 JLINK_ReadReg(R12)  returns 0x00000000 (0000ms, 1645ms total)
T317C 008:536 JLINK_ReadReg(R13 (SP))  returns 0x20000F70 (0000ms, 1645ms total)
T317C 008:536 JLINK_ReadReg(R14)  returns 0x0800022D (0000ms, 1645ms total)
T317C 008:536 JLINK_ReadReg(R15 (PC))  returns 0x08002BDE (0000ms, 1645ms total)
T317C 008:536 JLINK_ReadReg(XPSR)  returns 0x61000000 (0000ms, 1645ms total)
T317C 008:537 JLINK_ReadReg(MSP)  returns 0x20000F70 (0000ms, 1646ms total)
T317C 008:537 JLINK_ReadReg(PSP)  returns 0x00000000 (0000ms, 1646ms total)
T317C 008:537 JLINK_ReadReg(CFBP)  returns 0x00000000 (0000ms, 1646ms total)
T317C 008:537 JLINK_ReadReg(FPSCR)  returns 0x00000000 (0034ms, 1680ms total)
T317C 008:571 JLINK_ReadReg(FPS0)  returns 0x00000000 (0000ms, 1680ms total)
T317C 008:571 JLINK_ReadReg(FPS1)  returns 0x00000000 (0000ms, 1680ms total)
T317C 008:571 JLINK_ReadReg(FPS2)  returns 0x00000000 (0000ms, 1680ms total)
T317C 008:571 JLINK_ReadReg(FPS3)  returns 0x00000000 (0000ms, 1680ms total)
T317C 008:571 JLINK_ReadReg(FPS4)  returns 0x00000000 (0000ms, 1680ms total)
T317C 008:571 JLINK_ReadReg(FPS5)  returns 0x00000000 (0000ms, 1680ms total)
T317C 008:571 JLINK_ReadReg(FPS6)  returns 0x00000000 (0000ms, 1680ms total)
T317C 008:571 JLINK_ReadReg(FPS7)  returns 0x00000000 (0000ms, 1680ms total)
T317C 008:571 JLINK_ReadReg(FPS8)  returns 0x00000000 (0000ms, 1680ms total)
T317C 008:571 JLINK_ReadReg(FPS9)  returns 0x00000000 (0000ms, 1680ms total)
T317C 008:571 JLINK_ReadReg(FPS10)  returns 0x00000000 (0000ms, 1680ms total)
T317C 008:571 JLINK_ReadReg(FPS11)  returns 0x00000000 (0000ms, 1680ms total)
T317C 008:571 JLINK_ReadReg(FPS12)  returns 0x00000000 (0000ms, 1680ms total)
T317C 008:571 JLINK_ReadReg(FPS13)  returns 0x00000000 (0000ms, 1680ms total)
T317C 008:571 JLINK_ReadReg(FPS14)  returns 0x00000000 (0000ms, 1680ms total)
T317C 008:571 JLINK_ReadReg(FPS15)  returns 0x00000000 (0000ms, 1680ms total)
T317C 008:571 JLINK_ReadReg(FPS16)  returns 0x00000000 (0000ms, 1680ms total)
T317C 008:571 JLINK_ReadReg(FPS17)  returns 0x00000000 (0000ms, 1680ms total)
T317C 008:571 JLINK_ReadReg(FPS18)  returns 0x00000000 (0000ms, 1680ms total)
T317C 008:571 JLINK_ReadReg(FPS19)  returns 0x00000000 (0000ms, 1680ms total)
T317C 008:571 JLINK_ReadReg(FPS20)  returns 0x00000000 (0000ms, 1680ms total)
T317C 008:572 JLINK_ReadReg(FPS21)  returns 0x00000000 (0000ms, 1681ms total)
T317C 008:572 JLINK_ReadReg(FPS22)  returns 0x00000000 (0000ms, 1681ms total)
T317C 008:572 JLINK_ReadReg(FPS23)  returns 0x00000000 (0000ms, 1681ms total)
T317C 008:572 JLINK_ReadReg(FPS24)  returns 0x00000000 (0000ms, 1681ms total)
T317C 008:572 JLINK_ReadReg(FPS25)  returns 0x00000000 (0000ms, 1681ms total)
T317C 008:572 JLINK_ReadReg(FPS26)  returns 0x00000000 (0000ms, 1681ms total)
T317C 008:572 JLINK_ReadReg(FPS27)  returns 0x00000000 (0000ms, 1681ms total)
T317C 008:572 JLINK_ReadReg(FPS28)  returns 0x00000000 (0000ms, 1681ms total)
T317C 008:572 JLINK_ReadReg(FPS29)  returns 0x00000000 (0000ms, 1681ms total)
T317C 008:572 JLINK_ReadReg(FPS30)  returns 0x00000000 (0000ms, 1681ms total)
T317C 008:572 JLINK_ReadReg(FPS31)  returns 0x00000000 (0000ms, 1681ms total)
T00C0 008:572 JLINK_ReadMem (0x20000F7C, 0x0004 Bytes, ...) -- CPU_ReadMem(64 bytes @ 0x20000F40) -- Updating C cache (64 bytes @ 0x20000F40) -- Read from C cache (4 bytes @ 0x20000F7C) - Data: 2D 02 00 08  returns 0x00 (0008ms, 1689ms total)
T00C0 008:580 JLINK_ReadMem (0x00000000, 0x0002 Bytes, ...) -- CPU_ReadMem(4 bytes @ 0x00000004) -- CPU_ReadMem(64 bytes @ 0x08000000) -- Updating C cache (64 bytes @ 0x08000000) -- Read from C cache (2 bytes @ 0x08000000) - Data: 80 0F  returns 0x00 (0009ms, 1698ms total)
T00C0 008:590 JLINK_ReadMem (0x20000094, 0x0020 Bytes, ...) -- CPU_ReadMem(64 bytes @ 0x20000080) -- Updating C cache (64 bytes @ 0x20000080) -- Read from C cache (32 bytes @ 0x20000094) - Data: 00 00 00 00 00 00 00 00 00 00 00 00 00 00 00 00 ...  returns 0x00 (0008ms, 1706ms total)
T00C0 008:600 JLINK_ReadMem (0x200004F4, 0x0020 Bytes, ...) -- CPU_ReadMem(128 bytes @ 0x200004C0) -- Updating C cache (128 bytes @ 0x200004C0) -- Read from C cache (32 bytes @ 0x200004F4) - Data: 00 00 00 00 00 00 00 00 00 00 00 00 00 00 00 00 ...  returns 0x00 (0011ms, 1717ms total)
T00C0 008:615 JLINK_ReadMem (0x20000008, 0x0004 Bytes, ...) -- CPU_ReadMem(64 bytes @ 0x20000000) -- Updating C cache (64 bytes @ 0x20000000) -- Read from C cache (4 bytes @ 0x20000008) - Data: 00 00 00 00  returns 0x00 (0007ms, 1724ms total)
T00C0 008:622 JLINK_ReadMem (0x2000000C, 0x0004 Bytes, ...) -- Read from C cache (4 bytes @ 0x2000000C) - Data: 00 00 00 00  returns 0x00 (0000ms, 1724ms total)
T00C0 008:646 JLINK_ReadMem (0x40006400, 0x001C Bytes, ...) -- CPU_ReadMem(28 bytes @ 0x40006400) - Data: 02 00 01 00 0A 0C 00 00 00 00 00 1C 00 00 00 00 ...  returns 0x00 (0004ms, 1728ms total)
T00C0 008:650 JLINK_ReadMem (0x4000641C, 0x0004 Bytes, ...) -- CPU_ReadMem(4 bytes @ 0x4000641C) - Data: 00 00 23 01  returns 0x00 (0003ms, 1731ms total)
T00C0 008:653 JLINK_ReadMem (0x40006580, 0x004C Bytes, ...) -- CPU_ReadMem(76 bytes @ 0x40006580) - Data: 00 00 00 10 D1 DB F9 7D 07 00 00 00 00 00 00 00 ...  returns 0x00 (0007ms, 1738ms total)
T00C0 008:660 JLINK_ReadMem (0x400065CC, 0x0004 Bytes, ...) -- CPU_ReadMem(4 bytes @ 0x400065CC) - Data: F6 AD 26 AF  returns 0x00 (0003ms, 1741ms total)
T00C0 008:663 JLINK_ReadMem (0x40006600, 0x0004 Bytes, ...) -- CPU_ReadMem(4 bytes @ 0x40006600) - Data: 01 0E 1C 2A  returns 0x00 (0003ms, 1744ms total)
T00C0 008:666 JLINK_ReadMem (0x40006604, 0x0004 Bytes, ...) -- CPU_ReadMem(4 bytes @ 0x40006604) - Data: 00 00 00 00  returns 0x00 (0002ms, 1746ms total)
T00C0 008:668 JLINK_ReadMem (0x4000660C, 0x0004 Bytes, ...) -- CPU_ReadMem(4 bytes @ 0x4000660C) - Data: 00 00 00 00  returns 0x00 (0002ms, 1748ms total)
T00C0 008:670 JLINK_ReadMem (0x40006614, 0x0004 Bytes, ...) -- CPU_ReadMem(4 bytes @ 0x40006614) - Data: 00 00 00 00  returns 0x00 (0002ms, 1750ms total)
T00C0 008:672 JLINK_ReadMem (0x4000661C, 0x0004 Bytes, ...) -- CPU_ReadMem(4 bytes @ 0x4000661C) - Data: 00 00 00 00  returns 0x00 (0002ms, 1752ms total)
T00C0 008:674 JLINK_ReadMem (0x40006640, 0x00DC Bytes, ...) -- CPU_ReadMem(220 bytes @ 0x40006640) - Data: E0 00 E0 0F FF FF FF FF 00 00 E0 1F 00 00 E0 1F ...  returns 0x00 (0019ms, 1771ms total)
T00C0 008:693 JLINK_ReadMem (0x4000671C, 0x0004 Bytes, ...) -- CPU_ReadMem(4 bytes @ 0x4000671C) - Data: 55 59 5F 3C  returns 0x00 (0002ms, 1773ms total)
T00C0 008:701 JLINK_ReadMem (0x08002BDE, 0x0002 Bytes, ...) -- CPU_ReadMem(64 bytes @ 0x08002BC0) -- Updating C cache (64 bytes @ 0x08002BC0) -- Read from C cache (2 bytes @ 0x08002BDE) - Data: 00 20  returns 0x00 (0007ms, 1780ms total)
T00C0 008:708 JLINK_ReadMem (0x08002BE0, 0x0020 Bytes, ...) -- Read from C cache (32 bytes @ 0x08002BE0) - Data: 00 90 01 90 02 90 FF F7 95 FE 1E 48 00 88 08 B9 ...  returns 0x00 (0000ms, 1780ms total)
T00C0 008:708 JLINK_ReadMem (0x08002C00, 0x001C Bytes, ...) -- CPU_ReadMem(64 bytes @ 0x08002C00) -- Updating C cache (64 bytes @ 0x08002C00) -- Read from C cache (28 bytes @ 0x08002C00) - Data: 27 FB FF F7 C7 FB FF F7 0F FB 18 48 FF F7 CC FD ...  returns 0x00 (0006ms, 1786ms total)
T317C 139:835 JLINK_Step() -- Read from C cache (2 bytes @ 0x08002BDE) -- CPU_ReadMem(4 bytes @ 0xE0001004) -- Simulated  returns 0x00 (0005ms, 1791ms total)
T317C 139:840 JLINK_ReadReg(R15 (PC))  returns 0x08002BE0 (0000ms, 1791ms total)
T317C 139:840 JLINK_ReadReg(XPSR)  returns 0x61000000 (0000ms, 1791ms total)
T317C 139:840 JLINK_SetBPEx(Addr = 0x080024AA, Type = 0xFFFFFFF2)  returns 0x00000006 (0000ms, 1791ms total)
T317C 139:840 JLINK_SetBPEx(Addr = 0x08002BDE, Type = 0xFFFFFFF2)  returns 0x00000007 (0000ms, 1791ms total)
T317C 139:840 JLINK_Go() -- CPU_WriteMem(4 bytes @ 0xE0002000) -- CPU_WriteMem(4 bytes @ 0xE0002000) -- CPU_WriteMem(4 bytes @ 0xE0001004) (0014ms, 1805ms total)
T317C 139:955 JLINK_IsHalted()  returns FALSE (0002ms, 1807ms total)
T317C 140:057 JLINK_IsHalted()  returns FALSE (0003ms, 1808ms total)
T317C 140:160 JLINK_IsHalted()  returns FALSE (0003ms, 1808ms total)
T317C 140:263 JLINK_IsHalted()  returns FALSE (0003ms, 1808ms total)
T317C 140:367 JLINK_ReadMemU32(0xE0001004, 0x0001 Items, ...) -- CPU is running -- CPU_ReadMem(4 bytes @ 0xE0001004) - Data: 36 45 35 02  returns 0x01 (0002ms, 1807ms total)
T00C0 140:369 JLINK_ReadMem (0x20000094, 0x0020 Bytes, ...) -- CPU is running -- CPU_ReadMem(32 bytes @ 0x20000094) - Data: 00 00 00 00 00 00 00 00 00 00 00 00 00 00 00 00 ...  returns 0x00 (0004ms, 1811ms total)
T00C0 140:376 JLINK_ReadMem (0x200004F4, 0x0020 Bytes, ...) -- CPU is running -- CPU_ReadMem(32 bytes @ 0x200004F4) - Data: FF FF FF FF 90 95 00 20 F3 01 05 00 00 00 00 00 ...  returns 0x00 (0005ms, 1816ms total)
T00C0 140:387 JLINK_ReadMem (0x20000008, 0x0004 Bytes, ...) -- CPU is running -- CPU_ReadMem(4 bytes @ 0x20000008) - Data: 03 00 00 00  returns 0x00 (0002ms, 1818ms total)
T00C0 140:390 JLINK_ReadMem (0x2000000C, 0x0004 Bytes, ...) -- CPU is running -- CPU_ReadMem(4 bytes @ 0x2000000C) - Data: 02 00 00 00  returns 0x00 (0002ms, 1820ms total)
T00C0 140:393 JLINK_ReadMem (0x2000000C, 0x0004 Bytes, ...) -- CPU is running -- CPU_ReadMem(4 bytes @ 0x2000000C) - Data: 02 00 00 00  returns 0x00 (0003ms, 1823ms total)
T00C0 140:396 JLINK_ReadMem (0x20000096, 0x0020 Bytes, ...) -- CPU is running -- CPU_ReadMem(32 bytes @ 0x20000096) - Data: 00 00 00 00 00 00 00 00 00 00 00 00 00 00 00 00 ...  returns 0x00 (0007ms, 1830ms total)
T00C0 140:428 JLINK_ReadMem (0x40006400, 0x001C Bytes, ...) -- CPU is running -- CPU_ReadMem(28 bytes @ 0x40006400) - Data: 60 00 00 00 08 0C 00 00 00 00 00 1C 00 00 00 00 ...  returns 0x00 (0004ms, 1834ms total)
T00C0 140:432 JLINK_ReadMem (0x4000641C, 0x0004 Bytes, ...) -- CPU is running -- CPU_ReadMem(4 bytes @ 0x4000641C) - Data: 03 00 06 00  returns 0x00 (0002ms, 1836ms total)
T00C0 140:434 JLINK_ReadMem (0x40006580, 0x004C Bytes, ...) -- CPU is running -- CPU_ReadMem(76 bytes @ 0x40006580) - Data: 00 00 00 10 D1 DB F9 7D 07 00 00 00 00 00 00 00 ...  returns 0x00 (0008ms, 1844ms total)
T00C0 140:442 JLINK_ReadMem (0x400065CC, 0x0004 Bytes, ...) -- CPU is running -- CPU_ReadMem(4 bytes @ 0x400065CC) - Data: F6 AD 26 AF  returns 0x00 (0003ms, 1847ms total)
T00C0 140:445 JLINK_ReadMem (0x40006600, 0x0004 Bytes, ...) -- CPU is running -- CPU_ReadMem(4 bytes @ 0x40006600) - Data: 00 0E 1C 2A  returns 0x00 (0002ms, 1849ms total)
T00C0 140:447 JLINK_ReadMem (0x40006604, 0x0004 Bytes, ...) -- CPU is running -- CPU_ReadMem(4 bytes @ 0x40006604) - Data: 00 00 00 00  returns 0x00 (0003ms, 1852ms total)
T00C0 140:450 JLINK_ReadMem (0x4000660C, 0x0004 Bytes, ...) -- CPU is running -- CPU_ReadMem(4 bytes @ 0x4000660C) - Data: 00 00 00 00  returns 0x00 (0002ms, 1854ms total)
T00C0 140:452 JLINK_ReadMem (0x40006614, 0x0004 Bytes, ...) -- CPU is running -- CPU_ReadMem(4 bytes @ 0x40006614) - Data: 00 00 00 00  returns 0x00 (0003ms, 1857ms total)
T00C0 140:455 JLINK_ReadMem (0x4000661C, 0x0004 Bytes, ...) -- CPU is running -- CPU_ReadMem(4 bytes @ 0x4000661C) - Data: 01 00 00 00  returns 0x00 (0002ms, 1859ms total)
T00C0 140:457 JLINK_ReadMem (0x40006640, 0x00DC Bytes, ...) -- CPU is running -- CPU_ReadMem(220 bytes @ 0x40006640) - Data: E0 00 E0 0F FF FF FF FF 00 00 E0 1F 00 00 E0 1F ...  returns 0x00 (0018ms, 1877ms total)
T00C0 140:475 JLINK_ReadMem (0x4000671C, 0x0004 Bytes, ...) -- CPU is running -- CPU_ReadMem(4 bytes @ 0x4000671C) - Data: 55 59 5F 3C  returns 0x00 (0003ms, 1880ms total)
T317C 140:531 JLINK_IsHalted()  returns FALSE (0002ms, 1882ms total)
T317C 140:634 JLINK_IsHalted()  returns FALSE (0002ms, 1882ms total)
T317C 140:736 JLINK_IsHalted()  returns FALSE (0003ms, 1883ms total)
T317C 140:839 JLINK_IsHalted()  returns FALSE (0003ms, 1883ms total)
T317C 140:942 JLINK_ReadMemU32(0xE0001004, 0x0001 Items, ...) -- CPU is running -- CPU_ReadMem(4 bytes @ 0xE0001004) - Data: B6 20 AD 04  returns 0x01 (0002ms, 1882ms total)
T00C0 140:945 JLINK_ReadMem (0x20000094, 0x0020 Bytes, ...) -- CPU is running -- CPU_ReadMem(32 bytes @ 0x20000094) - Data: 00 00 00 00 00 00 00 00 00 00 00 00 00 00 00 00 ...  returns 0x00 (0005ms, 1887ms total)
T00C0 140:952 JLINK_ReadMem (0x200004F4, 0x0020 Bytes, ...) -- CPU is running -- CPU_ReadMem(32 bytes @ 0x200004F4) - Data: FF FF FF FF 90 95 00 20 32 04 05 00 00 00 00 00 ...  returns 0x00 (0005ms, 1892ms total)
T00C0 140:959 JLINK_ReadMem (0x20000008, 0x0004 Bytes, ...) -- CPU is running -- CPU_ReadMem(4 bytes @ 0x20000008) - Data: 03 00 00 00  returns 0x00 (0003ms, 1895ms total)
T00C0 140:962 JLINK_ReadMem (0x2000000C, 0x0004 Bytes, ...) -- CPU is running -- CPU_ReadMem(4 bytes @ 0x2000000C) - Data: 02 00 00 00  returns 0x00 (0003ms, 1898ms total)
T00C0 140:965 JLINK_ReadMem (0x2000000C, 0x0004 Bytes, ...) -- CPU is running -- CPU_ReadMem(4 bytes @ 0x2000000C) - Data: 02 00 00 00  returns 0x00 (0003ms, 1901ms total)
T00C0 140:968 JLINK_ReadMem (0x20000096, 0x0020 Bytes, ...) -- CPU is running -- CPU_ReadMem(32 bytes @ 0x20000096) - Data: 00 00 00 00 00 00 00 00 00 00 00 00 00 00 00 00 ...  returns 0x00 (0008ms, 1909ms total)
T00C0 141:003 JLINK_ReadMem (0x40006400, 0x001C Bytes, ...) -- CPU is running -- CPU_ReadMem(28 bytes @ 0x40006400) - Data: 60 00 00 00 08 0C 00 00 00 00 00 1C 00 00 00 00 ...  returns 0x00 (0004ms, 1913ms total)
T00C0 141:007 JLINK_ReadMem (0x4000641C, 0x0004 Bytes, ...) -- CPU is running -- CPU_ReadMem(4 bytes @ 0x4000641C) - Data: 03 00 06 00  returns 0x00 (0002ms, 1915ms total)
T00C0 141:009 JLINK_ReadMem (0x40006580, 0x004C Bytes, ...) -- CPU is running -- CPU_ReadMem(76 bytes @ 0x40006580) - Data: 00 00 00 10 D1 DB F9 7D 07 00 00 00 00 00 00 00 ...  returns 0x00 (0008ms, 1923ms total)
T00C0 141:017 JLINK_ReadMem (0x400065CC, 0x0004 Bytes, ...) -- CPU is running -- CPU_ReadMem(4 bytes @ 0x400065CC) - Data: F6 AD 26 AF  returns 0x00 (0003ms, 1926ms total)
T00C0 141:020 JLINK_ReadMem (0x40006600, 0x0004 Bytes, ...) -- CPU is running -- CPU_ReadMem(4 bytes @ 0x40006600) - Data: 00 0E 1C 2A  returns 0x00 (0002ms, 1928ms total)
T00C0 141:022 JLINK_ReadMem (0x40006604, 0x0004 Bytes, ...) -- CPU is running -- CPU_ReadMem(4 bytes @ 0x40006604) - Data: 00 00 00 00  returns 0x00 (0002ms, 1930ms total)
T00C0 141:024 JLINK_ReadMem (0x4000660C, 0x0004 Bytes, ...) -- CPU is running -- CPU_ReadMem(4 bytes @ 0x4000660C) - Data: 00 00 00 00  returns 0x00 (0003ms, 1933ms total)
T00C0 141:027 JLINK_ReadMem (0x40006614, 0x0004 Bytes, ...) -- CPU is running -- CPU_ReadMem(4 bytes @ 0x40006614) - Data: 00 00 00 00  returns 0x00 (0002ms, 1935ms total)
T00C0 141:029 JLINK_ReadMem (0x4000661C, 0x0004 Bytes, ...) -- CPU is running -- CPU_ReadMem(4 bytes @ 0x4000661C) - Data: 01 00 00 00  returns 0x00 (0003ms, 1938ms total)
T00C0 141:032 JLINK_ReadMem (0x40006640, 0x00DC Bytes, ...) -- CPU is running -- CPU_ReadMem(220 bytes @ 0x40006640) - Data: E0 00 E0 0F FF FF FF FF 00 00 E0 1F 00 00 E0 1F ...  returns 0x00 (0018ms, 1956ms total)
T00C0 141:050 JLINK_ReadMem (0x4000671C, 0x0004 Bytes, ...) -- CPU is running -- CPU_ReadMem(4 bytes @ 0x4000671C) - Data: 55 59 5F 3C  returns 0x00 (0002ms, 1958ms total)
T317C 141:059 JLINK_IsHalted()  returns FALSE (0002ms, 1960ms total)
T317C 141:162 JLINK_IsHalted()  returns FALSE (0002ms, 1960ms total)
T317C 141:264 JLINK_IsHalted()  returns FALSE (0002ms, 1960ms total)
T317C 141:367 JLINK_IsHalted()  returns FALSE (0002ms, 1960ms total)
T317C 141:470 JLINK_ReadMemU32(0xE0001004, 0x0001 Items, ...) -- CPU is running -- CPU_ReadMem(4 bytes @ 0xE0001004) - Data: 73 CF F0 06  returns 0x01 (0002ms, 1960ms total)
T00C0 141:472 JLINK_ReadMem (0x20000094, 0x0020 Bytes, ...) -- CPU is running -- CPU_ReadMem(32 bytes @ 0x20000094) - Data: 00 00 00 00 00 00 00 00 00 00 00 00 00 00 00 00 ...  returns 0x00 (0005ms, 1965ms total)
T00C0 141:480 JLINK_ReadMem (0x200004F4, 0x0020 Bytes, ...) -- CPU is running -- CPU_ReadMem(32 bytes @ 0x200004F4) - Data: FF FF FF FF 00 00 00 00 3F 06 05 00 00 00 00 00 ...  returns 0x00 (0004ms, 1969ms total)
T00C0 141:488 JLINK_ReadMem (0x20000008, 0x0004 Bytes, ...) -- CPU is running -- CPU_ReadMem(4 bytes @ 0x20000008) - Data: 03 00 00 00  returns 0x00 (0003ms, 1972ms total)
T00C0 141:491 JLINK_ReadMem (0x2000000C, 0x0004 Bytes, ...) -- CPU is running -- CPU_ReadMem(4 bytes @ 0x2000000C) - Data: 02 00 00 00  returns 0x00 (0002ms, 1974ms total)
T00C0 141:493 JLINK_ReadMem (0x2000000C, 0x0004 Bytes, ...) -- CPU is running -- CPU_ReadMem(4 bytes @ 0x2000000C) - Data: 02 00 00 00  returns 0x00 (0002ms, 1976ms total)
T00C0 141:495 JLINK_ReadMem (0x20000096, 0x0020 Bytes, ...) -- CPU is running -- CPU_ReadMem(32 bytes @ 0x20000096) - Data: 00 00 00 00 00 00 00 00 00 00 00 00 00 00 00 00 ...  returns 0x00 (0007ms, 1983ms total)
T00C0 141:525 JLINK_ReadMem (0x40006400, 0x001C Bytes, ...) -- CPU is running -- CPU_ReadMem(28 bytes @ 0x40006400) - Data: 60 00 00 00 08 0C 00 00 00 00 00 1C 00 00 00 00 ...  returns 0x00 (0004ms, 1987ms total)
T00C0 141:529 JLINK_ReadMem (0x4000641C, 0x0004 Bytes, ...) -- CPU is running -- CPU_ReadMem(4 bytes @ 0x4000641C) - Data: 03 00 06 00  returns 0x00 (0003ms, 1990ms total)
T00C0 141:532 JLINK_ReadMem (0x40006580, 0x004C Bytes, ...) -- CPU is running -- CPU_ReadMem(76 bytes @ 0x40006580) - Data: 00 00 00 10 D1 DB F9 7D 07 00 00 00 00 00 00 00 ...  returns 0x00 (0008ms, 1998ms total)
T00C0 141:540 JLINK_ReadMem (0x400065CC, 0x0004 Bytes, ...) -- CPU is running -- CPU_ReadMem(4 bytes @ 0x400065CC) - Data: F6 AD 26 AF  returns 0x00 (0002ms, 2000ms total)
T00C0 141:542 JLINK_ReadMem (0x40006600, 0x0004 Bytes, ...) -- CPU is running -- CPU_ReadMem(4 bytes @ 0x40006600) - Data: 00 0E 1C 2A  returns 0x00 (0003ms, 2003ms total)
T00C0 141:545 JLINK_ReadMem (0x40006604, 0x0004 Bytes, ...) -- CPU is running -- CPU_ReadMem(4 bytes @ 0x40006604) - Data: 00 00 00 00  returns 0x00 (0002ms, 2005ms total)
T00C0 141:547 JLINK_ReadMem (0x4000660C, 0x0004 Bytes, ...) -- CPU is running -- CPU_ReadMem(4 bytes @ 0x4000660C) - Data: 00 00 00 00  returns 0x00 (0003ms, 2008ms total)
T00C0 141:550 JLINK_ReadMem (0x40006614, 0x0004 Bytes, ...) -- CPU is running -- CPU_ReadMem(4 bytes @ 0x40006614) - Data: 00 00 00 00  returns 0x00 (0003ms, 2011ms total)
T00C0 141:553 JLINK_ReadMem (0x4000661C, 0x0004 Bytes, ...) -- CPU is running -- CPU_ReadMem(4 bytes @ 0x4000661C) - Data: 01 00 00 00  returns 0x00 (0002ms, 2013ms total)
T00C0 141:555 JLINK_ReadMem (0x40006640, 0x00DC Bytes, ...) -- CPU is running -- CPU_ReadMem(220 bytes @ 0x40006640) - Data: E0 00 E0 0F FF FF FF FF 00 00 E0 1F 00 00 E0 1F ...  returns 0x00 (0018ms, 2031ms total)
T00C0 141:573 JLINK_ReadMem (0x4000671C, 0x0004 Bytes, ...) -- CPU is running -- CPU_ReadMem(4 bytes @ 0x4000671C) - Data: 55 59 5F 3C  returns 0x00 (0002ms, 2033ms total)
T317C 141:581 JLINK_IsHalted()  returns FALSE (0002ms, 2035ms total)
T317C 141:684 JLINK_IsHalted()  returns FALSE (0002ms, 2035ms total)
T317C 141:787 JLINK_IsHalted()  returns FALSE (0002ms, 2035ms total)
T317C 141:889 JLINK_IsHalted()  returns FALSE (0003ms, 2036ms total)
T317C 141:993 JLINK_ReadMemU32(0xE0001004, 0x0001 Items, ...) -- CPU is running -- CPU_ReadMem(4 bytes @ 0xE0001004) - Data: 45 7E 2F 09  returns 0x01 (0002ms, 2035ms total)
T00C0 141:995 JLINK_ReadMem (0x20000094, 0x0020 Bytes, ...) -- CPU is running -- CPU_ReadMem(32 bytes @ 0x20000094) - Data: 00 00 00 00 00 00 00 00 00 00 00 00 00 00 00 00 ...  returns 0x00 (0005ms, 2040ms total)
T00C0 142:002 JLINK_ReadMem (0x200004F4, 0x0020 Bytes, ...) -- CPU is running -- CPU_ReadMem(32 bytes @ 0x200004F4) - Data: FF FF FF FF 90 95 00 20 4C 08 05 00 00 00 00 00 ...  returns 0x00 (0005ms, 2045ms total)
T00C0 142:011 JLINK_ReadMem (0x20000008, 0x0004 Bytes, ...) -- CPU is running -- CPU_ReadMem(4 bytes @ 0x20000008) - Data: 03 00 00 00  returns 0x00 (0002ms, 2047ms total)
T00C0 142:013 JLINK_ReadMem (0x2000000C, 0x0004 Bytes, ...) -- CPU is running -- CPU_ReadMem(4 bytes @ 0x2000000C) - Data: 02 00 00 00  returns 0x00 (0003ms, 2050ms total)
T00C0 142:016 JLINK_ReadMem (0x2000000C, 0x0004 Bytes, ...) -- CPU is running -- CPU_ReadMem(4 bytes @ 0x2000000C) - Data: 02 00 00 00  returns 0x00 (0003ms, 2053ms total)
T00C0 142:019 JLINK_ReadMem (0x20000096, 0x0020 Bytes, ...) -- CPU is running -- CPU_ReadMem(32 bytes @ 0x20000096) - Data: 00 00 00 00 00 00 00 00 00 00 00 00 00 00 00 00 ...  returns 0x00 (0007ms, 2060ms total)
T00C0 142:050 JLINK_ReadMem (0x40006400, 0x001C Bytes, ...) -- CPU is running -- CPU_ReadMem(28 bytes @ 0x40006400) - Data: 60 00 00 00 08 0C 00 00 00 00 00 1C 00 00 00 00 ...  returns 0x00 (0004ms, 2064ms total)
T00C0 142:054 JLINK_ReadMem (0x4000641C, 0x0004 Bytes, ...) -- CPU is running -- CPU_ReadMem(4 bytes @ 0x4000641C) - Data: 03 00 06 00  returns 0x00 (0002ms, 2066ms total)
T00C0 142:056 JLINK_ReadMem (0x40006580, 0x004C Bytes, ...) -- CPU is running -- CPU_ReadMem(76 bytes @ 0x40006580) - Data: 00 00 00 10 D1 DB F9 7D 07 00 00 00 00 00 00 00 ...  returns 0x00 (0007ms, 2073ms total)
T00C0 142:063 JLINK_ReadMem (0x400065CC, 0x0004 Bytes, ...) -- CPU is running -- CPU_ReadMem(4 bytes @ 0x400065CC) - Data: F6 AD 26 AF  returns 0x00 (0004ms, 2077ms total)
T00C0 142:067 JLINK_ReadMem (0x40006600, 0x0004 Bytes, ...) -- CPU is running -- CPU_ReadMem(4 bytes @ 0x40006600) - Data: 00 0E 1C 2A  returns 0x00 (0002ms, 2079ms total)
T00C0 142:069 JLINK_ReadMem (0x40006604, 0x0004 Bytes, ...) -- CPU is running -- CPU_ReadMem(4 bytes @ 0x40006604) - Data: 00 00 00 00  returns 0x00 (0002ms, 2081ms total)
T00C0 142:071 JLINK_ReadMem (0x4000660C, 0x0004 Bytes, ...) -- CPU is running -- CPU_ReadMem(4 bytes @ 0x4000660C) - Data: 00 00 00 00  returns 0x00 (0002ms, 2083ms total)
T00C0 142:074 JLINK_ReadMem (0x40006614, 0x0004 Bytes, ...) -- CPU is running -- CPU_ReadMem(4 bytes @ 0x40006614) - Data: 00 00 00 00  returns 0x00 (0002ms, 2085ms total)
T00C0 142:076 JLINK_ReadMem (0x4000661C, 0x0004 Bytes, ...) -- CPU is running -- CPU_ReadMem(4 bytes @ 0x4000661C) - Data: 01 00 00 00  returns 0x00 (0003ms, 2088ms total)
T00C0 142:079 JLINK_ReadMem (0x40006640, 0x00DC Bytes, ...) -- CPU is running -- CPU_ReadMem(220 bytes @ 0x40006640) - Data: E0 00 E0 0F FF FF FF FF 00 00 E0 1F 00 00 E0 1F ...  returns 0x00 (0017ms, 2105ms total)
T00C0 142:096 JLINK_ReadMem (0x4000671C, 0x0004 Bytes, ...) -- CPU is running -- CPU_ReadMem(4 bytes @ 0x4000671C) - Data: 55 59 5F 3C  returns 0x00 (0003ms, 2108ms total)
T317C 142:105 JLINK_IsHalted()  returns FALSE (0002ms, 2110ms total)
T317C 142:208 JLINK_IsHalted()  returns FALSE (0002ms, 2110ms total)
T317C 142:311 JLINK_IsHalted()  returns FALSE (0002ms, 2110ms total)
T317C 142:413 JLINK_IsHalted()  returns FALSE (0003ms, 2111ms total)
T317C 142:516 JLINK_ReadMemU32(0xE0001004, 0x0001 Items, ...) -- CPU is running -- CPU_ReadMem(4 bytes @ 0xE0001004) - Data: 46 A4 6E 0B  returns 0x01 (0003ms, 2111ms total)
T00C0 142:519 JLINK_ReadMem (0x20000094, 0x0020 Bytes, ...) -- CPU is running -- CPU_ReadMem(32 bytes @ 0x20000094) - Data: 00 00 00 00 00 00 00 00 00 00 00 00 00 00 00 00 ...  returns 0x00 (0004ms, 2115ms total)
T00C0 142:525 JLINK_ReadMem (0x200004F4, 0x0020 Bytes, ...) -- CPU is running -- CPU_ReadMem(32 bytes @ 0x200004F4) - Data: FF FF FF FF 90 95 00 20 59 0A 05 00 00 00 00 00 ...  returns 0x00 (0005ms, 2120ms total)
T00C0 142:533 JLINK_ReadMem (0x20000008, 0x0004 Bytes, ...) -- CPU is running -- CPU_ReadMem(4 bytes @ 0x20000008) - Data: 03 00 00 00  returns 0x00 (0002ms, 2122ms total)
